
T1478 011:455 SEGGER J-Link V4.80g Log File (0001ms, 11289ms total)
T1478 011:455 DLL Compiled: Feb 13 2014 20:50:02 (0001ms, 11289ms total)
T1478 011:455 Logging started @ 2016-05-10 22:37 (0001ms, 11289ms total)
T1478 011:456 JLINK_SetWarnOutHandler(...) (0000ms, 11289ms total)
T1478 011:456 JLINK_OpenEx(...)
Firmware: J-Link ARM-OB STM32 compiled Aug 22 2012 19:52:04
Hardware: V7.00
S/N: 20090928
Feature(s): RDI,FlashDL,FlashBP,JFlash,GDBFull  returns O.K. (0269ms, 11558ms total)
T1478 011:725 JLINK_SetErrorOutHandler(...) (0000ms, 11558ms total)
T1478 011:725 JLINK_ExecCommand("ProjectFile = "R:\Camera and uc_gui_3.0´çIPS\uVision3\JLinkSettings.ini"", ...)  returns 0x00 (0002ms, 11560ms total)
T1478 011:741 JLINK_ExecCommand("Device = STM32F103VE", ...)Device "STM32F103VE" selected (512 KB flash, 64 KB RAM).  returns 0x00 (0017ms, 11577ms total)
T1478 011:758 JLINK_ExecCommand("DisableConnectionTimeout", ...)  returns 0x01 (0000ms, 11577ms total)
T1478 011:758 JLINK_GetHardwareVersion()  returns 0x11170 (0000ms, 11577ms total)
T1478 011:758 JLINK_GetDLLVersion()  returns 48007 (0000ms, 11577ms total)
T1478 011:758 JLINK_GetFirmwareString(...) (0000ms, 11577ms total)
T1478 011:776 JLINK_GetDLLVersion()  returns 48007 (0000ms, 11577ms total)
T1478 011:776 JLINK_GetCompileDateTime() (0000ms, 11577ms total)
T1478 011:784 JLINK_GetFirmwareString(...) (0000ms, 11577ms total)
T1478 011:788 JLINK_GetHardwareVersion()  returns 0x11170 (0000ms, 11577ms total)
T1478 011:801 JLINK_TIF_Select(JLINKARM_TIF_SWD)  returns 0x00 (0001ms, 11578ms total)
T1478 011:802 JLINK_SetSpeed(2000) (0000ms, 11578ms total)
T1478 011:802 JLINK_GetId() >0x108 TIF>Found SWD-DP with ID 0x1BA01477 >0x0D TIF> >0x28 TIF> >0x0D TIF> >0x28 TIF> >0x0D TIF> >0x21 TIF> >0x0D TIF> >0x28 TIF> >0x0D TIF> >0x28 TIF> >0x0D TIF> >0x28 TIF> >0x0D TIF> >0x21 TIF> >0x0D TIF> >0x21 TIF> >0x0D TIF> >0x28 TIF> >0x0D TIF> >0x21 TIF> >0x0D TIF> >0x21 TIF> >0x0D TIF> >0x28 TIF> >0x0D TIF> >0x28 TIF> >0x108 TIF>Found SWD-DP with ID 0x1BA01477 >0x0D TIF> >0x21 TIF> >0x0D TIF> >0x28 TIF> >0x0D TIF> >0x28 TIF> >0x0D TIF> >0x21 TIF> >0x0D TIF> >0x28 TIF>
 >0x0D TIF> >0x21 TIF> >0x0D TIF> >0x21 TIF> >0x0D TIF> >0x21 TIF> >0x0D TIF> >0x21 TIF> >0x0D TIF> >0x28 TIF> >0x0D TIF> >0x28 TIF> >0x0D TIF> >0x21 TIF> >0x0D TIF> >0x28 TIF> >0x0D TIF> >0x28 TIF> >0x0D TIF> >0x28 TIF> >0x0D TIF> >0x21 TIF> >0x0D TIF> >0x21 TIF> >0x0D TIF> >0x28 TIF> >0x0D TIF> >0x21 TIF> >0x0D TIF> >0x21 TIF>Found Cortex-M3 r1p1, Little endian. -- CPU_WriteMem(4 bytes @ 0xE0002000) -- CPU_ReadMem(4 bytes @ 0xE000EDF0) -- CPU_WriteMem(4 bytes @ 0xE000EDF0)
 -- CPU_ReadMem(4 bytes @ 0xE0002000)FPUnit: 6 code (BP) slots and 2 literal slots -- CPU_ReadMem(4 bytes @ 0xE000EDFC) -- CPU_WriteMem(4 bytes @ 0xE000EDFC) -- CPU_ReadMem(4 bytes @ 0xE0001000) -- CPU_WriteMem(4 bytes @ 0xE0001000) -- CPU_ReadMem(4 bytes @ 0xE00FF010)TPIU fitted. -- CPU_ReadMem(4 bytes @ 0xE00FF014)ETM fitted. -- CPU_ReadMem(4 bytes @ 0xE00FF018) >0x0D TIF> >0x21 TIF>  returns 0x1BA01477 (0041ms, 11619ms total)
T1478 011:843 JLINK_GetDeviceFamily()  returns 3 (0000ms, 11619ms total)
T1478 011:845 JLINK_ReadMem (0xE00FFFF0, 0x0010 Bytes, ...) -- CPU is running -- CPU_ReadMem(16 bytes @ 0xE00FFFF0) -- Data:  0D 00 00 00 10 00 00 00 05 00 00 00 B1 00 00 00  returns 0x00 (0001ms, 11620ms total)
T1478 011:846 JLINK_ReadMem (0xE00FFFD0, 0x0020 Bytes, ...) -- CPU is running -- CPU_ReadMem(32 bytes @ 0xE00FFFD0) -- Data:  00 00 00 00 00 00 00 00 00 00 00 00 00 00 00 00 ...  returns 0x00 (0001ms, 11621ms total)
T1478 011:847 JLINK_ReadMem (0xE00FF000, 0x0018 Bytes, ...) -- CPU is running -- CPU_ReadMem(24 bytes @ 0xE00FF000) -- Data:  03 F0 F0 FF 03 20 F0 FF 03 30 F0 FF 03 10 F0 FF ...  returns 0x00 (0001ms, 11622ms total)
T1478 011:848 JLINK_ReadMemU32(0xE000ED00, 0x0001 Items, ...) -- CPU is running -- CPU_ReadMem(4 bytes @ 0xE000ED00) -- Data:  31 C2 1F 41  returns 0x01 (0000ms, 11622ms total)
T1478 011:848 JLINK_SetResetType(JLINKARM_RESET_TYPE_NORMAL)  returns JLINKARM_RESET_TYPE_NORMAL (0000ms, 11622ms total)
T1478 011:848 JLINK_Reset() -- CPU is running -- CPU_WriteMem(4 bytes @ 0xE000EDF0) -- CPU is running -- CPU_WriteMem(4 bytes @ 0xE000EDFC) >0x35 TIF> -- CPU is running -- CPU_WriteMem(4 bytes @ 0xE000ED0C) -- CPU is running -- CPU_ReadMem(4 bytes @ 0xE000EDF0) -- CPU is running -- CPU_ReadMem(4 bytes @ 0xE000EDF0) -- CPU is running -- CPU_WriteMem(4 bytes @ 0xE000EDF0) -- CPU is running -- CPU_WriteMem(4 bytes @ 0xE000EDFC) -- CPU is running -- CPU_ReadMem(4 bytes @ 0xE000EDF0)
 -- CPU_WriteMem(4 bytes @ 0xE0002000) -- CPU_ReadMem(4 bytes @ 0xE000EDFC) -- CPU_ReadMem(4 bytes @ 0xE0001000) (0020ms, 11642ms total)
T1478 011:868 JLINK_Halt()  returns 0x00 (0000ms, 11642ms total)
T1478 011:868 JLINK_IsHalted()  returns TRUE (0000ms, 11642ms total)
T1478 011:868 JLINK_ReadMemU32(0xE000EDF0, 0x0001 Items, ...) -- CPU_ReadMem(4 bytes @ 0xE000EDF0) -- Data:  03 00 03 00  returns 0x01 (0001ms, 11643ms total)
T1478 011:869 JLINK_WriteU32(0xE000EDF0, 0xA05F0003) -- CPU_WriteMem(4 bytes @ 0xE000EDF0)  returns 0x00 (0000ms, 11643ms total)
T1478 011:869 JLINK_WriteU32(0xE000EDFC, 0x01000000) -- CPU_WriteMem(4 bytes @ 0xE000EDFC)  returns 0x00 (0001ms, 11644ms total)
T1478 011:874 JLINK_GetHWStatus(...)  returns 0x00 (0001ms, 11645ms total)
T1478 011:878 JLINK_GetNumBPUnits(Type = 0xFFFFFF00)  returns 0x06 (0000ms, 11645ms total)
T1478 011:878 JLINK_GetNumBPUnits(Type = 0xF0)  returns 0x2000 (0000ms, 11645ms total)
T1478 011:878 JLINK_GetNumWPUnits()  returns 0x04 (0000ms, 11645ms total)
T1478 011:880 JLINK_GetSpeed()  returns 0x7D0 (0000ms, 11645ms total)
T1478 011:882 JLINK_ReadMemU32(0xE000E004, 0x0001 Items, ...) -- CPU_ReadMem(4 bytes @ 0xE000E004) -- Data:  01 00 00 00  returns 0x01 (0000ms, 11645ms total)
T1478 011:882 JLINK_ReadMemU32(0xE000E004, 0x0001 Items, ...) -- CPU_ReadMem(4 bytes @ 0xE000E004) -- Data:  01 00 00 00  returns 0x01 (0001ms, 11646ms total)
T1478 011:883 JLINK_WriteMem(0xE0001000, 0x001C Bytes, ...) -- Data:  01 00 00 00 00 00 00 00 00 00 00 00 00 00 00 00 ... -- CPU_WriteMem(28 bytes @ 0xE0001000)  returns 0x1C (0001ms, 11647ms total)
T1478 011:884 JLINK_ReadMem (0xE0001000, 0x001C Bytes, ...) -- CPU_ReadMem(28 bytes @ 0xE0001000) -- Data:  01 00 00 40 00 00 00 00 00 00 00 00 00 00 00 00 ...  returns 0x00 (0000ms, 11647ms total)
T1478 011:885 JLINK_Halt()  returns 0x00 (0000ms, 11647ms total)
T1478 011:885 JLINK_IsHalted()  returns TRUE (0000ms, 11647ms total)
T1478 011:890 JLINK_WriteMem(0x20000000, 0x0164 Bytes, ...) -- Data:  00 BE 0A E0 0D 78 2D 06 68 40 08 24 40 00 00 D3 ... -- CPU_WriteMem(356 bytes @ 0x20000000)  returns 0x164 (0005ms, 11652ms total)
T1478 011:895 JLINK_WriteReg(R0, 0x08000000)  returns 0x00 (0000ms, 11652ms total)
T1478 011:895 JLINK_WriteReg(R1, 0x007A1200)  returns 0x00 (0000ms, 11652ms total)
T1478 011:895 JLINK_WriteReg(R2, 0x00000001)  returns 0x00 (0000ms, 11652ms total)
T1478 011:895 JLINK_WriteReg(R3, 0x00000000)  returns 0x00 (0000ms, 11652ms total)
T1478 011:895 JLINK_WriteReg(R4, 0x00000000)  returns 0x00 (0000ms, 11652ms total)
T1478 011:895 JLINK_WriteReg(R5, 0x00000000)  returns 0x00 (0000ms, 11652ms total)
T1478 011:895 JLINK_WriteReg(R6, 0x00000000)  returns 0x00 (0000ms, 11652ms total)
T1478 011:895 JLINK_WriteReg(R7, 0x00000000)  returns 0x00 (0000ms, 11652ms total)
T1478 011:895 JLINK_WriteReg(R8, 0x00000000)  returns 0x00 (0000ms, 11652ms total)
T1478 011:895 JLINK_WriteReg(R9, 0x20000160)  returns 0x00 (0000ms, 11652ms total)
T1478 011:895 JLINK_WriteReg(R10, 0x00000000)  returns 0x00 (0000ms, 11652ms total)
T1478 011:895 JLINK_WriteReg(R11, 0x00000000)  returns 0x00 (0000ms, 11652ms total)
T1478 011:895 JLINK_WriteReg(R12, 0x00000000)  returns 0x00 (0000ms, 11652ms total)
T1478 011:895 JLINK_WriteReg(R13 (SP), 0x20000800)  returns 0x00 (0000ms, 11652ms total)
T1478 011:895 JLINK_WriteReg(R14, 0x20000001)  returns 0x00 (0000ms, 11652ms total)
T1478 011:895 JLINK_WriteReg(R15 (PC), 0x20000038)  returns 0x00 (0000ms, 11652ms total)
T1478 011:895 JLINK_WriteReg(XPSR, 0x01000000)  returns 0x00 (0000ms, 11652ms total)
T1478 011:895 JLINK_WriteReg(MSP, 0x20000800)  returns 0x00 (0000ms, 11652ms total)
T1478 011:895 JLINK_WriteReg(PSP, 0x20000800)  returns 0x00 (0000ms, 11652ms total)
T1478 011:895 JLINK_WriteReg(CFBP, 0x00000000)  returns 0x00 (0000ms, 11652ms total)
T1478 011:895 JLINK_SetBPEx(Addr = 0x20000000, Type = 0xFFFFFFF2) -- CPU_ReadMem(2 bytes @ 0x20000000)  returns 0x00000001 (0001ms, 11653ms total)
T1478 011:896 JLINK_Go() -- CPU_WriteMem(2 bytes @ 0x20000000) -- CPU_WriteMem(4 bytes @ 0xE0002008) -- CPU_WriteMem(4 bytes @ 0xE000200C) -- CPU_WriteMem(4 bytes @ 0xE0002010) -- CPU_WriteMem(4 bytes @ 0xE0002014) -- CPU_WriteMem(4 bytes @ 0xE0002018) -- CPU_WriteMem(4 bytes @ 0xE000201C) -- CPU_WriteMem(4 bytes @ 0xE0001004) (0008ms, 11661ms total)
T1478 011:904 JLINK_IsHalted() -- CPU_ReadMem(2 bytes @ 0x20000000)  returns TRUE (0004ms, 11665ms total)
T1478 011:908 JLINK_ReadReg(R15 (PC))  returns 0x20000000 (0000ms, 11661ms total)
T1478 011:908 JLINK_ClrBPEx(BPHandle = 0x00000001)  returns 0x00 (0000ms, 11661ms total)
T1478 011:908 JLINK_ReadReg(R0)  returns 0x00000000 (0000ms, 11661ms total)
T1478 011:908 JLINK_WriteReg(R0, 0x08000000)  returns 0x00 (0000ms, 11661ms total)
T1478 011:908 JLINK_WriteReg(R1, 0x007A1200)  returns 0x00 (0000ms, 11661ms total)
T1478 011:908 JLINK_WriteReg(R2, 0x00000001)  returns 0x00 (0000ms, 11661ms total)
T1478 011:908 JLINK_WriteReg(R3, 0x00000000)  returns 0x00 (0000ms, 11661ms total)
T1478 011:908 JLINK_WriteReg(R4, 0x00000000)  returns 0x00 (0000ms, 11661ms total)
T1478 011:908 JLINK_WriteReg(R5, 0x00000000)  returns 0x00 (0000ms, 11661ms total)
T1478 011:908 JLINK_WriteReg(R6, 0x00000000)  returns 0x00 (0000ms, 11661ms total)
T1478 011:908 JLINK_WriteReg(R7, 0x00000000)  returns 0x00 (0000ms, 11661ms total)
T1478 011:908 JLINK_WriteReg(R8, 0x00000000)  returns 0x00 (0000ms, 11661ms total)
T1478 011:908 JLINK_WriteReg(R9, 0x20000160)  returns 0x00 (0000ms, 11661ms total)
T1478 011:908 JLINK_WriteReg(R10, 0x00000000)  returns 0x00 (0000ms, 11661ms total)
T1478 011:908 JLINK_WriteReg(R11, 0x00000000)  returns 0x00 (0000ms, 11661ms total)
T1478 011:908 JLINK_WriteReg(R12, 0x00000000)  returns 0x00 (0000ms, 11661ms total)
T1478 011:908 JLINK_WriteReg(R13 (SP), 0x20000800)  returns 0x00 (0000ms, 11661ms total)
T1478 011:908 JLINK_WriteReg(R14, 0x20000001)  returns 0x00 (0000ms, 11661ms total)
T1478 011:908 JLINK_WriteReg(R15 (PC), 0x2000007C)  returns 0x00 (0000ms, 11661ms total)
T1478 011:908 JLINK_WriteReg(XPSR, 0x01000000)  returns 0x00 (0000ms, 11661ms total)
T1478 011:908 JLINK_WriteReg(MSP, 0x20000800)  returns 0x00 (0000ms, 11661ms total)
T1478 011:908 JLINK_WriteReg(PSP, 0x20000800)  returns 0x00 (0000ms, 11661ms total)
T1478 011:908 JLINK_WriteReg(CFBP, 0x00000000)  returns 0x00 (0000ms, 11661ms total)
T1478 011:908 JLINK_SetBPEx(Addr = 0x20000000, Type = 0xFFFFFFF2)  returns 0x00000002 (0000ms, 11661ms total)
T1478 011:908 JLINK_Go() (0002ms, 11663ms total)
T1478 011:910 JLINK_IsHalted()  returns FALSE (0001ms, 11664ms total)
T1478 012:053 JLINK_IsHalted() -- CPU_ReadMem(2 bytes @ 0x20000000)  returns TRUE (0003ms, 11666ms total)
T1478 012:056 JLINK_ReadReg(R15 (PC))  returns 0x20000000 (0001ms, 11664ms total)
T1478 012:057 JLINK_ClrBPEx(BPHandle = 0x00000002)  returns 0x00 (0000ms, 11664ms total)
T1478 012:057 JLINK_ReadReg(R0)  returns 0x00000000 (0000ms, 11664ms total)
T1478 012:110 JLINK_WriteReg(R0, 0x00000001)  returns 0x00 (0000ms, 11664ms total)
T1478 012:110 JLINK_WriteReg(R1, 0x007A1200)  returns 0x00 (0000ms, 11664ms total)
T1478 012:110 JLINK_WriteReg(R2, 0x00000001)  returns 0x00 (0000ms, 11664ms total)
T1478 012:110 JLINK_WriteReg(R3, 0x00000000)  returns 0x00 (0000ms, 11664ms total)
T1478 012:110 JLINK_WriteReg(R4, 0x00000000)  returns 0x00 (0000ms, 11664ms total)
T1478 012:110 JLINK_WriteReg(R5, 0x00000000)  returns 0x00 (0000ms, 11664ms total)
T1478 012:110 JLINK_WriteReg(R6, 0x00000000)  returns 0x00 (0000ms, 11664ms total)
T1478 012:110 JLINK_WriteReg(R7, 0x00000000)  returns 0x00 (0000ms, 11664ms total)
T1478 012:110 JLINK_WriteReg(R8, 0x00000000)  returns 0x00 (0000ms, 11664ms total)
T1478 012:110 JLINK_WriteReg(R9, 0x20000160)  returns 0x00 (0000ms, 11664ms total)
T1478 012:110 JLINK_WriteReg(R10, 0x00000000)  returns 0x00 (0000ms, 11664ms total)
T1478 012:110 JLINK_WriteReg(R11, 0x00000000)  returns 0x00 (0000ms, 11664ms total)
T1478 012:110 JLINK_WriteReg(R12, 0x00000000)  returns 0x00 (0000ms, 11664ms total)
T1478 012:110 JLINK_WriteReg(R13 (SP), 0x20000800)  returns 0x00 (0000ms, 11664ms total)
T1478 012:110 JLINK_WriteReg(R14, 0x20000001)  returns 0x00 (0000ms, 11664ms total)
T1478 012:110 JLINK_WriteReg(R15 (PC), 0x2000006A)  returns 0x00 (0000ms, 11664ms total)
T1478 012:110 JLINK_WriteReg(XPSR, 0x01000000)  returns 0x00 (0000ms, 11664ms total)
T1478 012:110 JLINK_WriteReg(MSP, 0x20000800)  returns 0x00 (0000ms, 11664ms total)
T1478 012:110 JLINK_WriteReg(PSP, 0x20000800)  returns 0x00 (0000ms, 11664ms total)
T1478 012:110 JLINK_WriteReg(CFBP, 0x00000000)  returns 0x00 (0000ms, 11664ms total)
T1478 012:110 JLINK_SetBPEx(Addr = 0x20000000, Type = 0xFFFFFFF2)  returns 0x00000003 (0000ms, 11664ms total)
T1478 012:110 JLINK_Go() (0002ms, 11666ms total)
T1478 012:112 JLINK_IsHalted() -- CPU_ReadMem(2 bytes @ 0x20000000)  returns TRUE (0004ms, 11670ms total)
T1478 012:116 JLINK_ReadReg(R15 (PC))  returns 0x20000000 (0000ms, 11666ms total)
T1478 012:116 JLINK_ClrBPEx(BPHandle = 0x00000003)  returns 0x00 (0000ms, 11666ms total)
T1478 012:116 JLINK_ReadReg(R0)  returns 0x00000000 (0000ms, 11666ms total)
T1478 012:119 JLINK_WriteMem(0x20000000, 0x0164 Bytes, ...) -- Data:  00 BE 0A E0 0D 78 2D 06 68 40 08 24 40 00 00 D3 ... -- CPU_WriteMem(356 bytes @ 0x20000000)  returns 0x164 (0005ms, 11671ms total)
T1478 012:124 JLINK_WriteReg(R0, 0x08000000)  returns 0x00 (0000ms, 11671ms total)
T1478 012:124 JLINK_WriteReg(R1, 0x007A1200)  returns 0x00 (0000ms, 11671ms total)
T1478 012:124 JLINK_WriteReg(R2, 0x00000002)  returns 0x00 (0000ms, 11671ms total)
T1478 012:124 JLINK_WriteReg(R3, 0x00000000)  returns 0x00 (0000ms, 11671ms total)
T1478 012:124 JLINK_WriteReg(R4, 0x00000000)  returns 0x00 (0000ms, 11671ms total)
T1478 012:124 JLINK_WriteReg(R5, 0x00000000)  returns 0x00 (0000ms, 11671ms total)
T1478 012:124 JLINK_WriteReg(R6, 0x00000000)  returns 0x00 (0000ms, 11671ms total)
T1478 012:124 JLINK_WriteReg(R7, 0x00000000)  returns 0x00 (0000ms, 11671ms total)
T1478 012:124 JLINK_WriteReg(R8, 0x00000000)  returns 0x00 (0000ms, 11671ms total)
T1478 012:124 JLINK_WriteReg(R9, 0x20000160)  returns 0x00 (0000ms, 11671ms total)
T1478 012:124 JLINK_WriteReg(R10, 0x00000000)  returns 0x00 (0000ms, 11671ms total)
T1478 012:124 JLINK_WriteReg(R11, 0x00000000)  returns 0x00 (0000ms, 11671ms total)
T1478 012:124 JLINK_WriteReg(R12, 0x00000000)  returns 0x00 (0000ms, 11671ms total)
T1478 012:124 JLINK_WriteReg(R13 (SP), 0x20000800)  returns 0x00 (0000ms, 11671ms total)
T1478 012:124 JLINK_WriteReg(R14, 0x20000001)  returns 0x00 (0000ms, 11671ms total)
T1478 012:124 JLINK_WriteReg(R15 (PC), 0x20000038)  returns 0x00 (0000ms, 11671ms total)
T1478 012:124 JLINK_WriteReg(XPSR, 0x01000000)  returns 0x00 (0000ms, 11671ms total)
T1478 012:124 JLINK_WriteReg(MSP, 0x20000800)  returns 0x00 (0000ms, 11671ms total)
T1478 012:124 JLINK_WriteReg(PSP, 0x20000800)  returns 0x00 (0000ms, 11671ms total)
T1478 012:124 JLINK_WriteReg(CFBP, 0x00000000)  returns 0x00 (0000ms, 11671ms total)
T1478 012:124 JLINK_SetBPEx(Addr = 0x20000000, Type = 0xFFFFFFF2) -- CPU_ReadMem(2 bytes @ 0x20000000)  returns 0x00000004 (0001ms, 11672ms total)
T1478 012:125 JLINK_Go() -- CPU_WriteMem(2 bytes @ 0x20000000) (0003ms, 11675ms total)
T1478 012:128 JLINK_IsHalted() -- CPU_ReadMem(2 bytes @ 0x20000000)  returns TRUE (0003ms, 11678ms total)
T1478 012:131 JLINK_ReadReg(R15 (PC))  returns 0x20000000 (0000ms, 11675ms total)
T1478 012:131 JLINK_ClrBPEx(BPHandle = 0x00000004)  returns 0x00 (0000ms, 11675ms total)
T1478 012:131 JLINK_ReadReg(R0)  returns 0x00000000 (0000ms, 11675ms total)
T1478 012:132 JLINK_WriteMem(0x20000164, 0x0400 Bytes, ...) -- Data:  C0 26 00 20 C9 01 00 08 CD 01 00 08 CF 01 00 08 ... -- CPU_WriteMem(1024 bytes @ 0x20000164)  returns 0x400 (0012ms, 11687ms total)
T1478 012:144 JLINK_WriteReg(R0, 0x08000000)  returns 0x00 (0000ms, 11687ms total)
T1478 012:144 JLINK_WriteReg(R1, 0x00000400)  returns 0x00 (0000ms, 11687ms total)
T1478 012:144 JLINK_WriteReg(R2, 0x20000164)  returns 0x00 (0000ms, 11687ms total)
T1478 012:144 JLINK_WriteReg(R3, 0x00000000)  returns 0x00 (0000ms, 11687ms total)
T1478 012:144 JLINK_WriteReg(R4, 0x00000000)  returns 0x00 (0000ms, 11687ms total)
T1478 012:144 JLINK_WriteReg(R5, 0x00000000)  returns 0x00 (0000ms, 11687ms total)
T1478 012:144 JLINK_WriteReg(R6, 0x00000000)  returns 0x00 (0000ms, 11687ms total)
T1478 012:144 JLINK_WriteReg(R7, 0x00000000)  returns 0x00 (0000ms, 11687ms total)
T1478 012:144 JLINK_WriteReg(R8, 0x00000000)  returns 0x00 (0000ms, 11687ms total)
T1478 012:144 JLINK_WriteReg(R9, 0x20000160)  returns 0x00 (0000ms, 11687ms total)
T1478 012:144 JLINK_WriteReg(R10, 0x00000000)  returns 0x00 (0000ms, 11687ms total)
T1478 012:144 JLINK_WriteReg(R11, 0x00000000)  returns 0x00 (0000ms, 11687ms total)
T1478 012:144 JLINK_WriteReg(R12, 0x00000000)  returns 0x00 (0000ms, 11687ms total)
T1478 012:144 JLINK_WriteReg(R13 (SP), 0x20000800)  returns 0x00 (0000ms, 11687ms total)
T1478 012:144 JLINK_WriteReg(R14, 0x20000001)  returns 0x00 (0000ms, 11687ms total)
T1478 012:144 JLINK_WriteReg(R15 (PC), 0x200000F4)  returns 0x00 (0000ms, 11687ms total)
T1478 012:144 JLINK_WriteReg(XPSR, 0x01000000)  returns 0x00 (0000ms, 11687ms total)
T1478 012:144 JLINK_WriteReg(MSP, 0x20000800)  returns 0x00 (0000ms, 11687ms total)
T1478 012:144 JLINK_WriteReg(PSP, 0x20000800)  returns 0x00 (0000ms, 11687ms total)
T1478 012:144 JLINK_WriteReg(CFBP, 0x00000000)  returns 0x00 (0000ms, 11687ms total)
T1478 012:144 JLINK_SetBPEx(Addr = 0x20000000, Type = 0xFFFFFFF2)  returns 0x00000005 (0000ms, 11687ms total)
T1478 012:144 JLINK_Go() (0002ms, 11689ms total)
T1478 012:146 JLINK_IsHalted()  returns FALSE (0001ms, 11690ms total)
T1478 012:193 JLINK_IsHalted() -- CPU_ReadMem(2 bytes @ 0x20000000)  returns TRUE (0004ms, 11693ms total)
T1478 012:197 JLINK_ReadReg(R15 (PC))  returns 0x20000000 (0000ms, 11689ms total)
T1478 012:197 JLINK_ClrBPEx(BPHandle = 0x00000005)  returns 0x00 (0000ms, 11689ms total)
T1478 012:197 JLINK_ReadReg(R0)  returns 0x00000000 (0000ms, 11689ms total)
T1478 012:197 JLINK_WriteMem(0x20000164, 0x0400 Bytes, ...) -- Data:  07 EB 02 0C AD F8 00 C0 06 EB 03 0C AD F8 02 C0 ... -- CPU_WriteMem(1024 bytes @ 0x20000164)  returns 0x400 (0013ms, 11702ms total)
T1478 012:210 JLINK_WriteReg(R0, 0x08000400)  returns 0x00 (0000ms, 11702ms total)
T1478 012:210 JLINK_WriteReg(R1, 0x00000400)  returns 0x00 (0000ms, 11702ms total)
T1478 012:210 JLINK_WriteReg(R2, 0x20000164)  returns 0x00 (0000ms, 11702ms total)
T1478 012:210 JLINK_WriteReg(R3, 0x00000000)  returns 0x00 (0000ms, 11702ms total)
T1478 012:210 JLINK_WriteReg(R4, 0x00000000)  returns 0x00 (0000ms, 11702ms total)
T1478 012:210 JLINK_WriteReg(R5, 0x00000000)  returns 0x00 (0000ms, 11702ms total)
T1478 012:210 JLINK_WriteReg(R6, 0x00000000)  returns 0x00 (0000ms, 11702ms total)
T1478 012:210 JLINK_WriteReg(R7, 0x00000000)  returns 0x00 (0000ms, 11702ms total)
T1478 012:210 JLINK_WriteReg(R8, 0x00000000)  returns 0x00 (0000ms, 11702ms total)
T1478 012:210 JLINK_WriteReg(R9, 0x20000160)  returns 0x00 (0000ms, 11702ms total)
T1478 012:210 JLINK_WriteReg(R10, 0x00000000)  returns 0x00 (0000ms, 11702ms total)
T1478 012:210 JLINK_WriteReg(R11, 0x00000000)  returns 0x00 (0000ms, 11702ms total)
T1478 012:210 JLINK_WriteReg(R12, 0x00000000)  returns 0x00 (0000ms, 11702ms total)
T1478 012:210 JLINK_WriteReg(R13 (SP), 0x20000800)  returns 0x00 (0000ms, 11702ms total)
T1478 012:210 JLINK_WriteReg(R14, 0x20000001)  returns 0x00 (0000ms, 11702ms total)
T1478 012:210 JLINK_WriteReg(R15 (PC), 0x200000F4)  returns 0x00 (0000ms, 11702ms total)
T1478 012:210 JLINK_WriteReg(XPSR, 0x01000000)  returns 0x00 (0000ms, 11702ms total)
T1478 012:210 JLINK_WriteReg(MSP, 0x20000800)  returns 0x00 (0000ms, 11702ms total)
T1478 012:210 JLINK_WriteReg(PSP, 0x20000800)  returns 0x00 (0000ms, 11702ms total)
T1478 012:210 JLINK_WriteReg(CFBP, 0x00000000)  returns 0x00 (0000ms, 11702ms total)
T1478 012:210 JLINK_SetBPEx(Addr = 0x20000000, Type = 0xFFFFFFF2)  returns 0x00000006 (0000ms, 11702ms total)
T1478 012:210 JLINK_Go() (0002ms, 11704ms total)
T1478 012:212 JLINK_IsHalted()  returns FALSE (0001ms, 11705ms total)
T1478 012:215 JLINK_IsHalted()  returns FALSE (0000ms, 11704ms total)
T1478 012:217 JLINK_IsHalted()  returns FALSE (0000ms, 11704ms total)
T1478 012:224 JLINK_IsHalted()  returns FALSE (0000ms, 11704ms total)
T1478 012:226 JLINK_IsHalted()  returns FALSE (0000ms, 11704ms total)
T1478 012:228 JLINK_IsHalted()  returns FALSE (0000ms, 11704ms total)
T1478 012:230 JLINK_IsHalted()  returns FALSE (0000ms, 11704ms total)
T1478 012:232 JLINK_IsHalted()  returns FALSE (0000ms, 11704ms total)
T1478 012:234 JLINK_IsHalted()  returns FALSE (0000ms, 11704ms total)
T1478 012:238 JLINK_IsHalted()  returns FALSE (0000ms, 11704ms total)
T1478 012:240 JLINK_IsHalted()  returns FALSE (0000ms, 11704ms total)
T1478 012:242 JLINK_IsHalted()  returns FALSE (0000ms, 11704ms total)
T1478 012:244 JLINK_IsHalted() -- CPU_ReadMem(2 bytes @ 0x20000000)  returns TRUE (0003ms, 11707ms total)
T1478 012:247 JLINK_ReadReg(R15 (PC))  returns 0x20000000 (0000ms, 11704ms total)
T1478 012:247 JLINK_ClrBPEx(BPHandle = 0x00000006)  returns 0x00 (0000ms, 11704ms total)
T1478 012:247 JLINK_ReadReg(R0)  returns 0x00000000 (0000ms, 11704ms total)
T1478 012:248 JLINK_WriteMem(0x20000164, 0x0400 Bytes, ...) -- Data:  01 4B 59 84 9A 84 BD E7 A4 1B 00 20 02 4B 59 84 ... -- CPU_WriteMem(1024 bytes @ 0x20000164)  returns 0x400 (0013ms, 11717ms total)
T1478 012:261 JLINK_WriteReg(R0, 0x08000800)  returns 0x00 (0000ms, 11717ms total)
T1478 012:261 JLINK_WriteReg(R1, 0x00000400)  returns 0x00 (0000ms, 11717ms total)
T1478 012:261 JLINK_WriteReg(R2, 0x20000164)  returns 0x00 (0000ms, 11717ms total)
T1478 012:261 JLINK_WriteReg(R3, 0x00000000)  returns 0x00 (0000ms, 11717ms total)
T1478 012:261 JLINK_WriteReg(R4, 0x00000000)  returns 0x00 (0000ms, 11717ms total)
T1478 012:261 JLINK_WriteReg(R5, 0x00000000)  returns 0x00 (0000ms, 11717ms total)
T1478 012:261 JLINK_WriteReg(R6, 0x00000000)  returns 0x00 (0000ms, 11717ms total)
T1478 012:261 JLINK_WriteReg(R7, 0x00000000)  returns 0x00 (0000ms, 11717ms total)
T1478 012:261 JLINK_WriteReg(R8, 0x00000000)  returns 0x00 (0000ms, 11717ms total)
T1478 012:261 JLINK_WriteReg(R9, 0x20000160)  returns 0x00 (0000ms, 11717ms total)
T1478 012:261 JLINK_WriteReg(R10, 0x00000000)  returns 0x00 (0000ms, 11717ms total)
T1478 012:261 JLINK_WriteReg(R11, 0x00000000)  returns 0x00 (0000ms, 11717ms total)
T1478 012:261 JLINK_WriteReg(R12, 0x00000000)  returns 0x00 (0000ms, 11717ms total)
T1478 012:261 JLINK_WriteReg(R13 (SP), 0x20000800)  returns 0x00 (0000ms, 11717ms total)
T1478 012:261 JLINK_WriteReg(R14, 0x20000001)  returns 0x00 (0000ms, 11717ms total)
T1478 012:261 JLINK_WriteReg(R15 (PC), 0x200000F4)  returns 0x00 (0000ms, 11717ms total)
T1478 012:261 JLINK_WriteReg(XPSR, 0x01000000)  returns 0x00 (0000ms, 11717ms total)
T1478 012:261 JLINK_WriteReg(MSP, 0x20000800)  returns 0x00 (0000ms, 11717ms total)
T1478 012:261 JLINK_WriteReg(PSP, 0x20000800)  returns 0x00 (0000ms, 11717ms total)
T1478 012:261 JLINK_WriteReg(CFBP, 0x00000000)  returns 0x00 (0000ms, 11717ms total)
T1478 012:261 JLINK_SetBPEx(Addr = 0x20000000, Type = 0xFFFFFFF2)  returns 0x00000007 (0000ms, 11717ms total)
T1478 012:261 JLINK_Go() (0002ms, 11719ms total)
T1478 012:263 JLINK_IsHalted()  returns FALSE (0001ms, 11720ms total)
T1478 012:266 JLINK_IsHalted()  returns FALSE (0000ms, 11719ms total)
T1478 012:268 JLINK_IsHalted()  returns FALSE (0000ms, 11719ms total)
T1478 012:270 JLINK_IsHalted()  returns FALSE (0000ms, 11719ms total)
T1478 012:272 JLINK_IsHalted()  returns FALSE (0000ms, 11719ms total)
T1478 012:274 JLINK_IsHalted()  returns FALSE (0000ms, 11719ms total)
T1478 012:276 JLINK_IsHalted()  returns FALSE (0000ms, 11719ms total)
T1478 012:278 JLINK_IsHalted()  returns FALSE (0000ms, 11719ms total)
T1478 012:280 JLINK_IsHalted()  returns FALSE (0000ms, 11719ms total)
T1478 012:282 JLINK_IsHalted()  returns FALSE (0000ms, 11719ms total)
T1478 012:284 JLINK_IsHalted()  returns FALSE (0000ms, 11719ms total)
T1478 012:289 JLINK_IsHalted()  returns FALSE (0000ms, 11719ms total)
T1478 012:291 JLINK_IsHalted()  returns FALSE (0000ms, 11719ms total)
T1478 012:293 JLINK_IsHalted()  returns FALSE (0000ms, 11719ms total)
T1478 012:295 JLINK_IsHalted()  returns FALSE (0000ms, 11719ms total)
T1478 012:297 JLINK_IsHalted() -- CPU_ReadMem(2 bytes @ 0x20000000)  returns TRUE (0003ms, 11722ms total)
T1478 012:300 JLINK_ReadReg(R15 (PC))  returns 0x20000000 (0000ms, 11719ms total)
T1478 012:300 JLINK_ClrBPEx(BPHandle = 0x00000007)  returns 0x00 (0000ms, 11719ms total)
T1478 012:300 JLINK_ReadReg(R0)  returns 0x00000000 (0000ms, 11719ms total)
T1478 012:300 JLINK_WriteMem(0x20000164, 0x0400 Bytes, ...) -- Data:  A9 78 92 68 03 D5 49 42 C9 B2 11 44 00 E0 51 1A ... -- CPU_WriteMem(1024 bytes @ 0x20000164)  returns 0x400 (0013ms, 11732ms total)
T1478 012:313 JLINK_WriteReg(R0, 0x08000C00)  returns 0x00 (0000ms, 11732ms total)
T1478 012:313 JLINK_WriteReg(R1, 0x00000400)  returns 0x00 (0000ms, 11732ms total)
T1478 012:313 JLINK_WriteReg(R2, 0x20000164)  returns 0x00 (0000ms, 11732ms total)
T1478 012:313 JLINK_WriteReg(R3, 0x00000000)  returns 0x00 (0000ms, 11732ms total)
T1478 012:313 JLINK_WriteReg(R4, 0x00000000)  returns 0x00 (0000ms, 11732ms total)
T1478 012:313 JLINK_WriteReg(R5, 0x00000000)  returns 0x00 (0000ms, 11732ms total)
T1478 012:313 JLINK_WriteReg(R6, 0x00000000)  returns 0x00 (0001ms, 11733ms total)
T1478 012:314 JLINK_WriteReg(R7, 0x00000000)  returns 0x00 (0000ms, 11733ms total)
T1478 012:314 JLINK_WriteReg(R8, 0x00000000)  returns 0x00 (0000ms, 11733ms total)
T1478 012:314 JLINK_WriteReg(R9, 0x20000160)  returns 0x00 (0000ms, 11733ms total)
T1478 012:314 JLINK_WriteReg(R10, 0x00000000)  returns 0x00 (0000ms, 11733ms total)
T1478 012:314 JLINK_WriteReg(R11, 0x00000000)  returns 0x00 (0000ms, 11733ms total)
T1478 012:314 JLINK_WriteReg(R12, 0x00000000)  returns 0x00 (0000ms, 11733ms total)
T1478 012:314 JLINK_WriteReg(R13 (SP), 0x20000800)  returns 0x00 (0000ms, 11733ms total)
T1478 012:314 JLINK_WriteReg(R14, 0x20000001)  returns 0x00 (0000ms, 11733ms total)
T1478 012:314 JLINK_WriteReg(R15 (PC), 0x200000F4)  returns 0x00 (0000ms, 11733ms total)
T1478 012:314 JLINK_WriteReg(XPSR, 0x01000000)  returns 0x00 (0000ms, 11733ms total)
T1478 012:314 JLINK_WriteReg(MSP, 0x20000800)  returns 0x00 (0000ms, 11733ms total)
T1478 012:314 JLINK_WriteReg(PSP, 0x20000800)  returns 0x00 (0000ms, 11733ms total)
T1478 012:314 JLINK_WriteReg(CFBP, 0x00000000)  returns 0x00 (0000ms, 11733ms total)
T1478 012:314 JLINK_SetBPEx(Addr = 0x20000000, Type = 0xFFFFFFF2)  returns 0x00000008 (0000ms, 11733ms total)
T1478 012:314 JLINK_Go() (0001ms, 11734ms total)
T1478 012:315 JLINK_IsHalted()  returns FALSE (0001ms, 11735ms total)
T1478 012:318 JLINK_IsHalted()  returns FALSE (0000ms, 11734ms total)
T1478 012:320 JLINK_IsHalted()  returns FALSE (0000ms, 11734ms total)
T1478 012:322 JLINK_IsHalted()  returns FALSE (0000ms, 11734ms total)
T1478 012:324 JLINK_IsHalted()  returns FALSE (0000ms, 11734ms total)
T1478 012:326 JLINK_IsHalted()  returns FALSE (0000ms, 11734ms total)
T1478 012:328 JLINK_IsHalted()  returns FALSE (0000ms, 11734ms total)
T1478 012:332 JLINK_IsHalted()  returns FALSE (0000ms, 11734ms total)
T1478 012:334 JLINK_IsHalted()  returns FALSE (0000ms, 11734ms total)
T1478 012:336 JLINK_IsHalted()  returns FALSE (0000ms, 11734ms total)
T1478 012:338 JLINK_IsHalted()  returns FALSE (0000ms, 11734ms total)
T1478 012:340 JLINK_IsHalted()  returns FALSE (0000ms, 11734ms total)
T1478 012:342 JLINK_IsHalted()  returns FALSE (0000ms, 11734ms total)
T1478 012:344 JLINK_IsHalted()  returns FALSE (0000ms, 11734ms total)
T1478 012:348 JLINK_IsHalted() -- CPU_ReadMem(2 bytes @ 0x20000000)  returns TRUE (0003ms, 11737ms total)
T1478 012:352 JLINK_ReadReg(R15 (PC))  returns 0x20000000 (0000ms, 11734ms total)
T1478 012:352 JLINK_ClrBPEx(BPHandle = 0x00000008)  returns 0x00 (0000ms, 11734ms total)
T1478 012:352 JLINK_ReadReg(R0)  returns 0x00000000 (0000ms, 11734ms total)
T1478 012:352 JLINK_WriteMem(0x20000164, 0x0400 Bytes, ...) -- Data:  00 00 D8 F8 04 00 40 1E C8 F8 04 00 D8 F8 08 20 ... -- CPU_WriteMem(1024 bytes @ 0x20000164)  returns 0x400 (0012ms, 11746ms total)
T1478 012:364 JLINK_WriteReg(R0, 0x08001000)  returns 0x00 (0000ms, 11746ms total)
T1478 012:364 JLINK_WriteReg(R1, 0x00000400)  returns 0x00 (0000ms, 11746ms total)
T1478 012:364 JLINK_WriteReg(R2, 0x20000164)  returns 0x00 (0000ms, 11746ms total)
T1478 012:364 JLINK_WriteReg(R3, 0x00000000)  returns 0x00 (0000ms, 11746ms total)
T1478 012:364 JLINK_WriteReg(R4, 0x00000000)  returns 0x00 (0000ms, 11746ms total)
T1478 012:364 JLINK_WriteReg(R5, 0x00000000)  returns 0x00 (0000ms, 11746ms total)
T1478 012:364 JLINK_WriteReg(R6, 0x00000000)  returns 0x00 (0000ms, 11746ms total)
T1478 012:364 JLINK_WriteReg(R7, 0x00000000)  returns 0x00 (0000ms, 11746ms total)
T1478 012:364 JLINK_WriteReg(R8, 0x00000000)  returns 0x00 (0000ms, 11746ms total)
T1478 012:364 JLINK_WriteReg(R9, 0x20000160)  returns 0x00 (0000ms, 11746ms total)
T1478 012:364 JLINK_WriteReg(R10, 0x00000000)  returns 0x00 (0000ms, 11746ms total)
T1478 012:364 JLINK_WriteReg(R11, 0x00000000)  returns 0x00 (0001ms, 11747ms total)
T1478 012:365 JLINK_WriteReg(R12, 0x00000000)  returns 0x00 (0000ms, 11747ms total)
T1478 012:365 JLINK_WriteReg(R13 (SP), 0x20000800)  returns 0x00 (0000ms, 11747ms total)
T1478 012:365 JLINK_WriteReg(R14, 0x20000001)  returns 0x00 (0000ms, 11747ms total)
T1478 012:365 JLINK_WriteReg(R15 (PC), 0x200000F4)  returns 0x00 (0000ms, 11747ms total)
T1478 012:365 JLINK_WriteReg(XPSR, 0x01000000)  returns 0x00 (0000ms, 11747ms total)
T1478 012:365 JLINK_WriteReg(MSP, 0x20000800)  returns 0x00 (0000ms, 11747ms total)
T1478 012:365 JLINK_WriteReg(PSP, 0x20000800)  returns 0x00 (0000ms, 11747ms total)
T1478 012:365 JLINK_WriteReg(CFBP, 0x00000000)  returns 0x00 (0000ms, 11747ms total)
T1478 012:365 JLINK_SetBPEx(Addr = 0x20000000, Type = 0xFFFFFFF2)  returns 0x00000009 (0000ms, 11747ms total)
T1478 012:365 JLINK_Go() (0002ms, 11749ms total)
T1478 012:367 JLINK_IsHalted()  returns FALSE (0000ms, 11749ms total)
T1478 012:369 JLINK_IsHalted()  returns FALSE (0000ms, 11749ms total)
T1478 012:371 JLINK_IsHalted()  returns FALSE (0000ms, 11749ms total)
T1478 012:373 JLINK_IsHalted()  returns FALSE (0000ms, 11749ms total)
T1478 012:375 JLINK_IsHalted()  returns FALSE (0000ms, 11749ms total)
T1478 012:379 JLINK_IsHalted()  returns FALSE (0000ms, 11749ms total)
T1478 012:381 JLINK_IsHalted()  returns FALSE (0000ms, 11749ms total)
T1478 012:383 JLINK_IsHalted()  returns FALSE (0000ms, 11749ms total)
T1478 012:385 JLINK_IsHalted()  returns FALSE (0000ms, 11749ms total)
T1478 012:387 JLINK_IsHalted()  returns FALSE (0000ms, 11749ms total)
T1478 012:389 JLINK_IsHalted()  returns FALSE (0000ms, 11749ms total)
T1478 012:391 JLINK_IsHalted()  returns FALSE (0000ms, 11749ms total)
T1478 012:396 JLINK_IsHalted()  returns FALSE (0000ms, 11749ms total)
T1478 012:398 JLINK_IsHalted() -- CPU_ReadMem(2 bytes @ 0x20000000)  returns TRUE (0003ms, 11752ms total)
T1478 012:401 JLINK_ReadReg(R15 (PC))  returns 0x20000000 (0000ms, 11749ms total)
T1478 012:401 JLINK_ClrBPEx(BPHandle = 0x00000009)  returns 0x00 (0000ms, 11749ms total)
T1478 012:401 JLINK_ReadReg(R0)  returns 0x00000000 (0000ms, 11749ms total)
T1478 012:402 JLINK_WriteMem(0x20000164, 0x0400 Bytes, ...) -- Data:  48 46 98 47 6D 1C 45 45 CC DD BD E8 F8 8F 70 B5 ... -- CPU_WriteMem(1024 bytes @ 0x20000164)  returns 0x400 (0012ms, 11761ms total)
T1478 012:414 JLINK_WriteReg(R0, 0x08001400)  returns 0x00 (0000ms, 11761ms total)
T1478 012:414 JLINK_WriteReg(R1, 0x00000400)  returns 0x00 (0000ms, 11761ms total)
T1478 012:414 JLINK_WriteReg(R2, 0x20000164)  returns 0x00 (0000ms, 11761ms total)
T1478 012:414 JLINK_WriteReg(R3, 0x00000000)  returns 0x00 (0000ms, 11761ms total)
T1478 012:414 JLINK_WriteReg(R4, 0x00000000)  returns 0x00 (0000ms, 11761ms total)
T1478 012:414 JLINK_WriteReg(R5, 0x00000000)  returns 0x00 (0000ms, 11761ms total)
T1478 012:414 JLINK_WriteReg(R6, 0x00000000)  returns 0x00 (0000ms, 11761ms total)
T1478 012:414 JLINK_WriteReg(R7, 0x00000000)  returns 0x00 (0000ms, 11761ms total)
T1478 012:414 JLINK_WriteReg(R8, 0x00000000)  returns 0x00 (0000ms, 11761ms total)
T1478 012:414 JLINK_WriteReg(R9, 0x20000160)  returns 0x00 (0001ms, 11762ms total)
T1478 012:415 JLINK_WriteReg(R10, 0x00000000)  returns 0x00 (0000ms, 11762ms total)
T1478 012:415 JLINK_WriteReg(R11, 0x00000000)  returns 0x00 (0000ms, 11762ms total)
T1478 012:415 JLINK_WriteReg(R12, 0x00000000)  returns 0x00 (0000ms, 11762ms total)
T1478 012:415 JLINK_WriteReg(R13 (SP), 0x20000800)  returns 0x00 (0000ms, 11762ms total)
T1478 012:415 JLINK_WriteReg(R14, 0x20000001)  returns 0x00 (0000ms, 11762ms total)
T1478 012:415 JLINK_WriteReg(R15 (PC), 0x200000F4)  returns 0x00 (0000ms, 11762ms total)
T1478 012:415 JLINK_WriteReg(XPSR, 0x01000000)  returns 0x00 (0000ms, 11762ms total)
T1478 012:415 JLINK_WriteReg(MSP, 0x20000800)  returns 0x00 (0000ms, 11762ms total)
T1478 012:415 JLINK_WriteReg(PSP, 0x20000800)  returns 0x00 (0000ms, 11762ms total)
T1478 012:415 JLINK_WriteReg(CFBP, 0x00000000)  returns 0x00 (0000ms, 11762ms total)
T1478 012:415 JLINK_SetBPEx(Addr = 0x20000000, Type = 0xFFFFFFF2)  returns 0x0000000A (0000ms, 11762ms total)
T1478 012:415 JLINK_Go() (0002ms, 11764ms total)
T1478 012:417 JLINK_IsHalted()  returns FALSE (0000ms, 11764ms total)
T1478 012:419 JLINK_IsHalted()  returns FALSE (0000ms, 11764ms total)
T1478 012:421 JLINK_IsHalted()  returns FALSE (0000ms, 11764ms total)
T1478 012:425 JLINK_IsHalted()  returns FALSE (0000ms, 11764ms total)
T1478 012:427 JLINK_IsHalted()  returns FALSE (0000ms, 11764ms total)
T1478 012:429 JLINK_IsHalted()  returns FALSE (0000ms, 11764ms total)
T1478 012:431 JLINK_IsHalted()  returns FALSE (0000ms, 11764ms total)
T1478 012:433 JLINK_IsHalted()  returns FALSE (0000ms, 11764ms total)
T1478 012:435 JLINK_IsHalted()  returns FALSE (0000ms, 11764ms total)
T1478 012:437 JLINK_IsHalted()  returns FALSE (0000ms, 11764ms total)
T1478 012:439 JLINK_IsHalted()  returns FALSE (0000ms, 11764ms total)
T1478 012:443 JLINK_IsHalted()  returns FALSE (0000ms, 11764ms total)
T1478 012:445 JLINK_IsHalted()  returns FALSE (0000ms, 11764ms total)
T1478 012:447 JLINK_IsHalted()  returns FALSE (0000ms, 11764ms total)
T1478 012:449 JLINK_IsHalted() -- CPU_ReadMem(2 bytes @ 0x20000000)  returns TRUE (0003ms, 11767ms total)
T1478 012:452 JLINK_ReadReg(R15 (PC))  returns 0x20000000 (0000ms, 11764ms total)
T1478 012:452 JLINK_ClrBPEx(BPHandle = 0x0000000A)  returns 0x00 (0000ms, 11764ms total)
T1478 012:452 JLINK_ReadReg(R0)  returns 0x00000000 (0000ms, 11764ms total)
T1478 012:453 JLINK_WriteMem(0x20000164, 0x0400 Bytes, ...) -- Data:  09 F0 D7 FC BD F9 04 10 40 1E B1 42 01 DD AD F8 ... -- CPU_WriteMem(1024 bytes @ 0x20000164)  returns 0x400 (0013ms, 11777ms total)
T1478 012:466 JLINK_WriteReg(R0, 0x08001800)  returns 0x00 (0000ms, 11777ms total)
T1478 012:466 JLINK_WriteReg(R1, 0x00000400)  returns 0x00 (0000ms, 11777ms total)
T1478 012:466 JLINK_WriteReg(R2, 0x20000164)  returns 0x00 (0000ms, 11777ms total)
T1478 012:466 JLINK_WriteReg(R3, 0x00000000)  returns 0x00 (0000ms, 11777ms total)
T1478 012:466 JLINK_WriteReg(R4, 0x00000000)  returns 0x00 (0000ms, 11777ms total)
T1478 012:466 JLINK_WriteReg(R5, 0x00000000)  returns 0x00 (0000ms, 11777ms total)
T1478 012:466 JLINK_WriteReg(R6, 0x00000000)  returns 0x00 (0000ms, 11777ms total)
T1478 012:466 JLINK_WriteReg(R7, 0x00000000)  returns 0x00 (0000ms, 11777ms total)
T1478 012:466 JLINK_WriteReg(R8, 0x00000000)  returns 0x00 (0000ms, 11777ms total)
T1478 012:466 JLINK_WriteReg(R9, 0x20000160)  returns 0x00 (0000ms, 11777ms total)
T1478 012:466 JLINK_WriteReg(R10, 0x00000000)  returns 0x00 (0000ms, 11777ms total)
T1478 012:466 JLINK_WriteReg(R11, 0x00000000)  returns 0x00 (0000ms, 11777ms total)
T1478 012:466 JLINK_WriteReg(R12, 0x00000000)  returns 0x00 (0000ms, 11777ms total)
T1478 012:466 JLINK_WriteReg(R13 (SP), 0x20000800)  returns 0x00 (0000ms, 11777ms total)
T1478 012:466 JLINK_WriteReg(R14, 0x20000001)  returns 0x00 (0000ms, 11777ms total)
T1478 012:466 JLINK_WriteReg(R15 (PC), 0x200000F4)  returns 0x00 (0000ms, 11777ms total)
T1478 012:466 JLINK_WriteReg(XPSR, 0x01000000)  returns 0x00 (0000ms, 11777ms total)
T1478 012:466 JLINK_WriteReg(MSP, 0x20000800)  returns 0x00 (0000ms, 11777ms total)
T1478 012:466 JLINK_WriteReg(PSP, 0x20000800)  returns 0x00 (0000ms, 11777ms total)
T1478 012:466 JLINK_WriteReg(CFBP, 0x00000000)  returns 0x00 (0000ms, 11777ms total)
T1478 012:466 JLINK_SetBPEx(Addr = 0x20000000, Type = 0xFFFFFFF2)  returns 0x0000000B (0000ms, 11777ms total)
T1478 012:466 JLINK_Go() (0002ms, 11779ms total)
T1478 012:468 JLINK_IsHalted()  returns FALSE (0001ms, 11780ms total)
T1478 012:474 JLINK_IsHalted()  returns FALSE (0000ms, 11779ms total)
T1478 012:476 JLINK_IsHalted()  returns FALSE (0000ms, 11779ms total)
T1478 012:478 JLINK_IsHalted()  returns FALSE (0000ms, 11779ms total)
T1478 012:480 JLINK_IsHalted()  returns FALSE (0000ms, 11779ms total)
T1478 012:482 JLINK_IsHalted()  returns FALSE (0000ms, 11779ms total)
T1478 012:484 JLINK_IsHalted()  returns FALSE (0000ms, 11779ms total)
T1478 012:486 JLINK_IsHalted()  returns FALSE (0000ms, 11779ms total)
T1478 012:488 JLINK_IsHalted()  returns FALSE (0000ms, 11779ms total)
T1478 012:490 JLINK_IsHalted()  returns FALSE (0000ms, 11779ms total)
T1478 012:492 JLINK_IsHalted()  returns FALSE (0000ms, 11779ms total)
T1478 012:494 JLINK_IsHalted()  returns FALSE (0000ms, 11779ms total)
T1478 012:496 JLINK_IsHalted()  returns FALSE (0000ms, 11779ms total)
T1478 012:498 JLINK_IsHalted()  returns FALSE (0000ms, 11779ms total)
T1478 012:500 JLINK_IsHalted() -- CPU_ReadMem(2 bytes @ 0x20000000)  returns TRUE (0003ms, 11782ms total)
T1478 012:503 JLINK_ReadReg(R15 (PC))  returns 0x20000000 (0000ms, 11779ms total)
T1478 012:503 JLINK_ClrBPEx(BPHandle = 0x0000000B)  returns 0x00 (0000ms, 11779ms total)
T1478 012:503 JLINK_ReadReg(R0)  returns 0x00000000 (0000ms, 11779ms total)
T1478 012:504 JLINK_WriteMem(0x20000164, 0x0400 Bytes, ...) -- Data:  4F F4 80 71 06 F0 F2 FC 21 7F 88 07 25 D5 28 46 ... -- CPU_WriteMem(1024 bytes @ 0x20000164)  returns 0x400 (0012ms, 11791ms total)
T1478 012:516 JLINK_WriteReg(R0, 0x08001C00)  returns 0x00 (0000ms, 11791ms total)
T1478 012:516 JLINK_WriteReg(R1, 0x00000400)  returns 0x00 (0000ms, 11791ms total)
T1478 012:516 JLINK_WriteReg(R2, 0x20000164)  returns 0x00 (0000ms, 11791ms total)
T1478 012:516 JLINK_WriteReg(R3, 0x00000000)  returns 0x00 (0000ms, 11791ms total)
T1478 012:516 JLINK_WriteReg(R4, 0x00000000)  returns 0x00 (0000ms, 11791ms total)
T1478 012:516 JLINK_WriteReg(R5, 0x00000000)  returns 0x00 (0000ms, 11791ms total)
T1478 012:516 JLINK_WriteReg(R6, 0x00000000)  returns 0x00 (0000ms, 11791ms total)
T1478 012:516 JLINK_WriteReg(R7, 0x00000000)  returns 0x00 (0000ms, 11791ms total)
T1478 012:516 JLINK_WriteReg(R8, 0x00000000)  returns 0x00 (0000ms, 11791ms total)
T1478 012:516 JLINK_WriteReg(R9, 0x20000160)  returns 0x00 (0000ms, 11791ms total)
T1478 012:516 JLINK_WriteReg(R10, 0x00000000)  returns 0x00 (0000ms, 11791ms total)
T1478 012:516 JLINK_WriteReg(R11, 0x00000000)  returns 0x00 (0000ms, 11791ms total)
T1478 012:516 JLINK_WriteReg(R12, 0x00000000)  returns 0x00 (0000ms, 11791ms total)
T1478 012:516 JLINK_WriteReg(R13 (SP), 0x20000800)  returns 0x00 (0000ms, 11791ms total)
T1478 012:516 JLINK_WriteReg(R14, 0x20000001)  returns 0x00 (0001ms, 11792ms total)
T1478 012:517 JLINK_WriteReg(R15 (PC), 0x200000F4)  returns 0x00 (0000ms, 11792ms total)
T1478 012:517 JLINK_WriteReg(XPSR, 0x01000000)  returns 0x00 (0000ms, 11792ms total)
T1478 012:517 JLINK_WriteReg(MSP, 0x20000800)  returns 0x00 (0000ms, 11792ms total)
T1478 012:517 JLINK_WriteReg(PSP, 0x20000800)  returns 0x00 (0000ms, 11792ms total)
T1478 012:517 JLINK_WriteReg(CFBP, 0x00000000)  returns 0x00 (0000ms, 11792ms total)
T1478 012:517 JLINK_SetBPEx(Addr = 0x20000000, Type = 0xFFFFFFF2)  returns 0x0000000C (0000ms, 11792ms total)
T1478 012:517 JLINK_Go() (0002ms, 11794ms total)
T1478 012:519 JLINK_IsHalted()  returns FALSE (0000ms, 11794ms total)
T1478 012:524 JLINK_IsHalted()  returns FALSE (0000ms, 11794ms total)
T1478 012:526 JLINK_IsHalted()  returns FALSE (0000ms, 11794ms total)
T1478 012:529 JLINK_IsHalted()  returns FALSE (0000ms, 11794ms total)
T1478 012:531 JLINK_IsHalted()  returns FALSE (0000ms, 11794ms total)
T1478 012:533 JLINK_IsHalted()  returns FALSE (0000ms, 11794ms total)
T1478 012:535 JLINK_IsHalted()  returns FALSE (0000ms, 11794ms total)
T1478 012:537 JLINK_IsHalted()  returns FALSE (0000ms, 11794ms total)
T1478 012:539 JLINK_IsHalted()  returns FALSE (0000ms, 11794ms total)
T1478 012:541 JLINK_IsHalted()  returns FALSE (0000ms, 11794ms total)
T1478 012:543 JLINK_IsHalted()  returns FALSE (0000ms, 11794ms total)
T1478 012:545 JLINK_IsHalted()  returns FALSE (0000ms, 11794ms total)
T1478 012:547 JLINK_IsHalted()  returns FALSE (0000ms, 11794ms total)
T1478 012:551 JLINK_IsHalted() -- CPU_ReadMem(2 bytes @ 0x20000000)  returns TRUE (0004ms, 11798ms total)
T1478 012:555 JLINK_ReadReg(R15 (PC))  returns 0x20000000 (0000ms, 11794ms total)
T1478 012:555 JLINK_ClrBPEx(BPHandle = 0x0000000C)  returns 0x00 (0000ms, 11794ms total)
T1478 012:555 JLINK_ReadReg(R0)  returns 0x00000000 (0000ms, 11794ms total)
T1478 012:555 JLINK_WriteMem(0x20000164, 0x0400 Bytes, ...) -- Data:  05 00 15 D0 FF F7 1F F8 C1 8D 01 B1 49 1E 8C 42 ... -- CPU_WriteMem(1024 bytes @ 0x20000164)  returns 0x400 (0013ms, 11807ms total)
T1478 012:568 JLINK_WriteReg(R0, 0x08002000)  returns 0x00 (0000ms, 11807ms total)
T1478 012:568 JLINK_WriteReg(R1, 0x00000400)  returns 0x00 (0000ms, 11807ms total)
T1478 012:568 JLINK_WriteReg(R2, 0x20000164)  returns 0x00 (0000ms, 11807ms total)
T1478 012:568 JLINK_WriteReg(R3, 0x00000000)  returns 0x00 (0000ms, 11807ms total)
T1478 012:568 JLINK_WriteReg(R4, 0x00000000)  returns 0x00 (0000ms, 11807ms total)
T1478 012:568 JLINK_WriteReg(R5, 0x00000000)  returns 0x00 (0000ms, 11807ms total)
T1478 012:568 JLINK_WriteReg(R6, 0x00000000)  returns 0x00 (0000ms, 11807ms total)
T1478 012:568 JLINK_WriteReg(R7, 0x00000000)  returns 0x00 (0000ms, 11807ms total)
T1478 012:568 JLINK_WriteReg(R8, 0x00000000)  returns 0x00 (0000ms, 11807ms total)
T1478 012:568 JLINK_WriteReg(R9, 0x20000160)  returns 0x00 (0000ms, 11807ms total)
T1478 012:568 JLINK_WriteReg(R10, 0x00000000)  returns 0x00 (0000ms, 11807ms total)
T1478 012:568 JLINK_WriteReg(R11, 0x00000000)  returns 0x00 (0000ms, 11807ms total)
T1478 012:568 JLINK_WriteReg(R12, 0x00000000)  returns 0x00 (0000ms, 11807ms total)
T1478 012:568 JLINK_WriteReg(R13 (SP), 0x20000800)  returns 0x00 (0000ms, 11807ms total)
T1478 012:568 JLINK_WriteReg(R14, 0x20000001)  returns 0x00 (0000ms, 11807ms total)
T1478 012:568 JLINK_WriteReg(R15 (PC), 0x200000F4)  returns 0x00 (0000ms, 11807ms total)
T1478 012:568 JLINK_WriteReg(XPSR, 0x01000000)  returns 0x00 (0000ms, 11807ms total)
T1478 012:568 JLINK_WriteReg(MSP, 0x20000800)  returns 0x00 (0000ms, 11807ms total)
T1478 012:568 JLINK_WriteReg(PSP, 0x20000800)  returns 0x00 (0000ms, 11807ms total)
T1478 012:568 JLINK_WriteReg(CFBP, 0x00000000)  returns 0x00 (0000ms, 11807ms total)
T1478 012:568 JLINK_SetBPEx(Addr = 0x20000000, Type = 0xFFFFFFF2)  returns 0x0000000D (0000ms, 11807ms total)
T1478 012:568 JLINK_Go() (0002ms, 11809ms total)
T1478 012:570 JLINK_IsHalted()  returns FALSE (0000ms, 11809ms total)
T1478 012:574 JLINK_IsHalted()  returns FALSE (0000ms, 11809ms total)
T1478 012:576 JLINK_IsHalted()  returns FALSE (0000ms, 11809ms total)
T1478 012:578 JLINK_IsHalted()  returns FALSE (0000ms, 11809ms total)
T1478 012:580 JLINK_IsHalted()  returns FALSE (0000ms, 11809ms total)
T1478 012:582 JLINK_IsHalted()  returns FALSE (0000ms, 11809ms total)
T1478 012:584 JLINK_IsHalted()  returns FALSE (0000ms, 11809ms total)
T1478 012:586 JLINK_IsHalted()  returns FALSE (0000ms, 11809ms total)
T1478 012:588 JLINK_IsHalted()  returns FALSE (0000ms, 11809ms total)
T1478 012:590 JLINK_IsHalted()  returns FALSE (0000ms, 11809ms total)
T1478 012:592 JLINK_IsHalted()  returns FALSE (0000ms, 11809ms total)
T1478 012:594 JLINK_IsHalted()  returns FALSE (0000ms, 11809ms total)
T1478 012:596 JLINK_IsHalted()  returns FALSE (0000ms, 11809ms total)
T1478 012:598 JLINK_IsHalted()  returns FALSE (0000ms, 11809ms total)
T1478 012:600 JLINK_IsHalted()  returns FALSE (0000ms, 11809ms total)
T1478 012:602 JLINK_IsHalted() -- CPU_ReadMem(2 bytes @ 0x20000000)  returns TRUE (0004ms, 11813ms total)
T1478 012:606 JLINK_ReadReg(R15 (PC))  returns 0x20000000 (0000ms, 11809ms total)
T1478 012:606 JLINK_ClrBPEx(BPHandle = 0x0000000D)  returns 0x00 (0000ms, 11809ms total)
T1478 012:606 JLINK_ReadReg(R0)  returns 0x00000000 (0000ms, 11809ms total)
T1478 012:606 JLINK_WriteMem(0x20000164, 0x0400 Bytes, ...) -- Data:  62 BA 30 46 FF F7 15 FE 13 E0 05 F1 2E 00 09 F0 ... -- CPU_WriteMem(1024 bytes @ 0x20000164)  returns 0x400 (0012ms, 11821ms total)
T1478 012:618 JLINK_WriteReg(R0, 0x08002400)  returns 0x00 (0000ms, 11821ms total)
T1478 012:618 JLINK_WriteReg(R1, 0x00000400)  returns 0x00 (0000ms, 11821ms total)
T1478 012:618 JLINK_WriteReg(R2, 0x20000164)  returns 0x00 (0000ms, 11821ms total)
T1478 012:618 JLINK_WriteReg(R3, 0x00000000)  returns 0x00 (0000ms, 11821ms total)
T1478 012:618 JLINK_WriteReg(R4, 0x00000000)  returns 0x00 (0000ms, 11821ms total)
T1478 012:618 JLINK_WriteReg(R5, 0x00000000)  returns 0x00 (0000ms, 11821ms total)
T1478 012:618 JLINK_WriteReg(R6, 0x00000000)  returns 0x00 (0000ms, 11821ms total)
T1478 012:618 JLINK_WriteReg(R7, 0x00000000)  returns 0x00 (0000ms, 11821ms total)
T1478 012:618 JLINK_WriteReg(R8, 0x00000000)  returns 0x00 (0000ms, 11821ms total)
T1478 012:618 JLINK_WriteReg(R9, 0x20000160)  returns 0x00 (0001ms, 11822ms total)
T1478 012:619 JLINK_WriteReg(R10, 0x00000000)  returns 0x00 (0000ms, 11822ms total)
T1478 012:619 JLINK_WriteReg(R11, 0x00000000)  returns 0x00 (0000ms, 11822ms total)
T1478 012:619 JLINK_WriteReg(R12, 0x00000000)  returns 0x00 (0000ms, 11822ms total)
T1478 012:619 JLINK_WriteReg(R13 (SP), 0x20000800)  returns 0x00 (0000ms, 11822ms total)
T1478 012:619 JLINK_WriteReg(R14, 0x20000001)  returns 0x00 (0000ms, 11822ms total)
T1478 012:619 JLINK_WriteReg(R15 (PC), 0x200000F4)  returns 0x00 (0000ms, 11822ms total)
T1478 012:619 JLINK_WriteReg(XPSR, 0x01000000)  returns 0x00 (0000ms, 11822ms total)
T1478 012:619 JLINK_WriteReg(MSP, 0x20000800)  returns 0x00 (0000ms, 11822ms total)
T1478 012:619 JLINK_WriteReg(PSP, 0x20000800)  returns 0x00 (0000ms, 11822ms total)
T1478 012:619 JLINK_WriteReg(CFBP, 0x00000000)  returns 0x00 (0000ms, 11822ms total)
T1478 012:619 JLINK_SetBPEx(Addr = 0x20000000, Type = 0xFFFFFFF2)  returns 0x0000000E (0000ms, 11822ms total)
T1478 012:619 JLINK_Go() (0002ms, 11824ms total)
T1478 012:621 JLINK_IsHalted()  returns FALSE (0000ms, 11824ms total)
T1478 012:627 JLINK_IsHalted()  returns FALSE (0000ms, 11824ms total)
T1478 012:629 JLINK_IsHalted()  returns FALSE (0000ms, 11824ms total)
T1478 012:631 JLINK_IsHalted()  returns FALSE (0000ms, 11824ms total)
T1478 012:633 JLINK_IsHalted()  returns FALSE (0000ms, 11824ms total)
T1478 012:635 JLINK_IsHalted()  returns FALSE (0000ms, 11824ms total)
T1478 012:637 JLINK_IsHalted()  returns FALSE (0000ms, 11824ms total)
T1478 012:639 JLINK_IsHalted()  returns FALSE (0001ms, 11825ms total)
T1478 012:642 JLINK_IsHalted()  returns FALSE (0000ms, 11824ms total)
T1478 012:644 JLINK_IsHalted()  returns FALSE (0000ms, 11824ms total)
T1478 012:646 JLINK_IsHalted()  returns FALSE (0000ms, 11824ms total)
T1478 012:648 JLINK_IsHalted()  returns FALSE (0000ms, 11824ms total)
T1478 012:650 JLINK_IsHalted()  returns FALSE (0001ms, 11825ms total)
T1478 012:653 JLINK_IsHalted() -- CPU_ReadMem(2 bytes @ 0x20000000)  returns TRUE (0004ms, 11828ms total)
T1478 012:657 JLINK_ReadReg(R15 (PC))  returns 0x20000000 (0000ms, 11824ms total)
T1478 012:657 JLINK_ClrBPEx(BPHandle = 0x0000000E)  returns 0x00 (0000ms, 11824ms total)
T1478 012:657 JLINK_ReadReg(R0)  returns 0x00000000 (0000ms, 11824ms total)
T1478 012:659 JLINK_WriteMem(0x20000164, 0x0400 Bytes, ...) -- Data:  00 28 4F D0 FE F7 1F FC 00 90 E8 6D FE F7 94 FA ... -- CPU_WriteMem(1024 bytes @ 0x20000164)  returns 0x400 (0012ms, 11836ms total)
T1478 012:671 JLINK_WriteReg(R0, 0x08002800)  returns 0x00 (0000ms, 11836ms total)
T1478 012:671 JLINK_WriteReg(R1, 0x00000400)  returns 0x00 (0000ms, 11836ms total)
T1478 012:671 JLINK_WriteReg(R2, 0x20000164)  returns 0x00 (0000ms, 11836ms total)
T1478 012:671 JLINK_WriteReg(R3, 0x00000000)  returns 0x00 (0000ms, 11836ms total)
T1478 012:671 JLINK_WriteReg(R4, 0x00000000)  returns 0x00 (0000ms, 11836ms total)
T1478 012:671 JLINK_WriteReg(R5, 0x00000000)  returns 0x00 (0000ms, 11836ms total)
T1478 012:671 JLINK_WriteReg(R6, 0x00000000)  returns 0x00 (0000ms, 11836ms total)
T1478 012:671 JLINK_WriteReg(R7, 0x00000000)  returns 0x00 (0000ms, 11836ms total)
T1478 012:671 JLINK_WriteReg(R8, 0x00000000)  returns 0x00 (0000ms, 11836ms total)
T1478 012:671 JLINK_WriteReg(R9, 0x20000160)  returns 0x00 (0000ms, 11836ms total)
T1478 012:671 JLINK_WriteReg(R10, 0x00000000)  returns 0x00 (0000ms, 11836ms total)
T1478 012:671 JLINK_WriteReg(R11, 0x00000000)  returns 0x00 (0001ms, 11837ms total)
